#H
SOURCE='tispice' VERSION='4.3.0b3'
TITLE='TIspice Run'
SUBTITLE='base'
TIME='10:02' DATE='07-11-2016' TEMPERATURE='27'
ANALYSIS='transient' SERIAL='01234567'
ALLVALUES='NO' COMPLEXVALUES='NO' NODES='12'
SWEEPVAR='time' SWEEPMODE='VAR_STEP' DGTLDATA='NO'
XBEGIN='0' XEND='0.003'
FORMAT='0 VOLTSorAMPS;EFLOAT : NODEorBRANCH;NODE'
#N
'V(vsw)' 
'V(vout)' 
'V(vin)' 
'V(vfb)' 
'V(vcomp)' 
'I(viout,p)' 
'I(viload,p)' 
'I(viinductor,p)' 
'I(viin,p)' 
'I(viic,p)' 
'I(vicout,p)' 
'I(vicin,p)' 
#U
'volts' 
'volts' 
'volts' 
'volts' 
'volts' 
'amps' 
'amps' 
'amps' 
'amps' 
'amps' 
'amps' 
'amps' 
#C 0.000000e+000 12
-2.258982775724121e-013:1 -2.239979673794863e-013:2 -2.002891866497145e-026:3 -1.088403307348507e-014:4 9.703164475062438e-002:5 -1.791983739035890e-014:6 
-1.791983739035890e-014:7 -1.792745465024363e-014:8 4.005783732994289e-025:9 -1.866904583358343e-060:a -6.047945041627325e-021:b 9.511675914882170e-041:c 
#C 4.028712462700781e-006 12
-2.242181667851512e-013:1 -2.222921942833567e-013:2 1.856152451939520e-020:3 8.489384288841789e-011:4 9.703164554668262e-002:5 -1.778337554266854e-014:6 
-1.778337554266854e-014:7 -1.792848411461816e-014:8 -3.712304903879041e-019:9 -1.866904583358343e-060:a 2.894753395289731e-015:b 6.498052012876069e-020:c 
#C 4.028812462700781e-006 12
-2.248742024796999e-013:1 -2.222921211331336e-013:2 5.384780035325675e-018:3 8.489668408823331e-011:4 9.703164554670310e-002:5 -1.778336969065069e-014:6 
-1.778336969065069e-014:7 -1.792848479628148e-014:8 -1.076956007065135e-016:9 -1.866904583358343e-060:a 2.894848330419396e-015:b 8.089663318914646e-015:c 
#C 4.029012462700780e-006 12
-2.267621835398704e-013:1 -2.222923474234180e-013:2 -1.790356122317182e-017:3 8.489377679707172e-011:4 9.703164554673550e-002:5 -1.778338779387344e-014:6 
-1.778338779387344e-014:7 -1.792848842490964e-014:8 3.580712244634365e-016:9 -1.866904583358343e-060:a 2.894758981267566e-015:b -3.209101440679907e-014:c 
#C 4.029412462700780e-006 12
-2.277634641459963e-013:1 -2.222920206480094e-013:2 -1.326541239807950e-017:3 8.490255582106282e-011:4 9.703164554681490e-002:5 -1.778336165184075e-014:6 
-1.778336165184075e-014:7 -1.792849989826587e-014:8 2.653082479615901e-016:9 0.000000000000000e+000:a 2.895034890778077e-015:b 3.034176204235962e-015:c 
#C 4.030212462700780e-006 12
-2.281055840368704e-013:1 -2.222916234664468e-013:2 -8.661308710315450e-018:3 8.492075945639732e-011:4 9.703164554697435e-002:5 -1.778332987731574e-014:6 
-1.778332987731574e-014:7 -1.792852786192942e-014:8 1.732261742063090e-016:9 0.000000000000000e+000:a 2.895625268239732e-015:b -3.991101508016404e-015:c 
#C 4.031812462700781e-006 12
-2.275851464260569e-013:1 -2.222907320431691e-013:2 -3.716043127509474e-018:3 8.496682589869690e-011:4 9.703164554730305e-002:5 -1.778325856345352e-014:6 
-1.778325856345352e-014:7 -1.792858281510957e-014:8 7.432086255018949e-017:9 -1.493523666686675e-059:a 2.897144199441574e-015:b -1.364050244645302e-015:c 
#C 4.035012462700781e-006 12
-2.136813919739762e-013:1 -2.222888415306515e-013:2 5.105711015377701e-018:3 8.506383704973784e-011:4 9.703164554796578e-002:5 -1.778310732245212e-014:6 
-1.778310732245212e-014:7 -1.792842502669291e-014:8 -1.021142203075540e-016:9 -1.045466566680673e-058:a 2.900615363304499e-015:b 3.178634506276519e-015:c 
#C 4.041412462700780e-006 12
-2.060322024317789e-013:1 -2.222862477923910e-013:2 -1.090424392473476e-019:3 8.517677993261899e-011:4 9.703164554921147e-002:5 -1.778289982339128e-014:6 
-1.778289982339128e-014:7 -1.792760166810768e-014:8 2.180848784946952e-018:9 -4.591774807899561e-041:a 2.905264804583943e-015:b -1.341773391904774e-016:c 
#C 4.041812462700781e-006 12
-2.056325908337074e-013:1 -2.222863399744547e-013:2 3.991717442734433e-019:3 8.517287572378220e-011:4 9.703164554927837e-002:5 -1.778290719795638e-014:6 
-1.778290719795638e-014:7 -1.792752871608132e-014:8 -7.983434885468866e-018:9 1.328505680098020e-040:a 2.905205698438046e-015:b 5.773151708095782e-016:c 
#C 4.042612462700781e-006 12
-2.058653055977218e-013:1 -2.222860904437713e-013:2 -2.572274731364837e-019:3 8.517531398899958e-011:4 9.703164554942247e-002:5 -1.778288723550170e-014:6 
-1.778288723550170e-014:7 -1.792738241324125e-014:8 5.144549462729668e-018:9 -1.801891777787390e-040:a 2.905419110812952e-015:b -1.244819512422177e-016:c 
#C 4.044212462700781e-006 12
-2.059311686794909e-013:1 -2.222860794504342e-013:2 -4.402657697996214e-018:3 8.516380173663892e-011:4 9.703164554969422e-002:5 -1.778288635603473e-014:6 
-1.778288635603473e-014:7 -1.792709012121729e-014:8 8.805315395992428e-017:9 2.766811612572731e-040:a 2.905299371106264e-015:b -2.329230513995387e-015:c 
#C 4.047412462700781e-006 12
-2.041039122702584e-013:1 -2.222851851542195e-013:2 2.212934573999159e-018:3 8.517475967522048e-011:4 9.703164555027168e-002:5 -1.778281481233756e-014:6 
-1.778281481233756e-014:7 -1.792647072320672e-014:8 -4.425869147998317e-017:9 1.209139230220220e-041:a 2.906238548430213e-015:b 1.889448367748514e-015:c 
#C 4.053812462700781e-006 12
-2.002656609733232e-013:1 -2.222832055240041e-013:2 4.798939148329958e-019:3 8.522026635860244e-011:4 9.703164555145032e-002:5 -1.778265644192033e-014:6 
-1.778265644192033e-014:7 -1.792505676893540e-014:8 -9.597878296659964e-018:9 -1.698535344193920e-038:a 2.909119300274679e-015:b 2.150539543740384e-016:c 
#C 4.066612462700782e-006 12
-1.889655630601823e-013:1 -2.222787709473793e-013:2 -1.545757178963596e-018:3 8.531669562679877e-011:4 9.703164555381379e-002:5 -1.778230167579034e-014:6 
-1.778230167579034e-014:7 -1.792122125807577e-014:8 3.091514357927177e-017:9 1.245107429470461e-038:a 2.916043789062749e-015:b -5.616920394916181e-016:c 
#C 4.092212462700784e-006 12
-1.877408868254640e-013:1 -2.222703005984746e-013:2 -3.798905517466910e-020:3 8.545731746202410e-011:4 9.703164555848971e-002:5 -1.778162404787797e-014:6 
-1.778162404787797e-014:7 -1.791255748633753e-014:8 7.597811034933820e-019:9 -2.549813675074933e-041:a 2.929051838778499e-015:b 1.997300211894821e-016:c 
#C 4.143412462700788e-006 12
-1.246889659033067e-013:1 -2.222482899148776e-013:2 -3.892475234531476e-019:3 8.549687813072731e-011:4 9.703164556758283e-002:5 -1.777986319319021e-014:6 
-1.777986319319021e-014:7 -1.787507417498685e-014:8 7.784950469063002e-018:9 1.129648349272859e-039:a 2.966186390363483e-015:b -1.821411856488452e-017:c 
#C 4.245812462700796e-006 12
-3.420851596965225e-013:1 -2.222597969963821e-013:2 2.758737026060583e-019:3 8.524994243625046e-011:4 9.703164558530368e-002:5 -1.778078375971057e-014:6 
-1.778078375971057e-014:7 -1.791754132379832e-014:8 -5.517474052121154e-018:9 -8.601207340042288e-040:a 2.915821087100516e-015:b 9.930569692760254e-017:c 
#C 4.255412462700797e-006 12
2.046128502199733e-013:1 -2.222435409655346e-013:2 -1.964507394804896e-018:3 8.513594750070435e-011:4 9.703164558686227e-002:5 -1.777948327724277e-014:6 
-1.777948327724277e-014:7 -1.787994496300213e-014:8 3.929014789609791e-017:9 1.287567984032188e-040:a 2.948045137151063e-015:b -8.174405953201334e-016:c 
#C 4.255412480028421e-006 12
-3.904232004311283e-013:1 -2.295517975214999e-013:2 -5.327153567335870e-017:3 6.707876084582490e-011:4 9.703164556880510e-002:5 -1.836414380171999e-014:6 
-1.836414380171999e-014:7 -1.787994499458876e-014:8 1.065430713467174e-015:9 1.287587651388603e-040:a 2.888067119855824e-015:b -2.961270716476218e-010:c 
#C 4.255412514683669e-006 12
-3.837297186655651e-013:1 -2.133523115841228e-013:2 -9.492362291645617e-017:3 1.065788399210034e-010:4 9.703164560830520e-002:5 -1.706818492672982e-014:6 
-1.706818492672982e-014:7 -1.787994172257087e-014:8 1.898472458329124e-015:9 1.188370620683499e-038:a 3.002246744554236e-015:b -2.964795526545145e-012:c 
#C 4.255412583994166e-006 12
-3.978267608419864e-013:1 -2.240496715736683e-013:2 -1.763137500192418e-016:3 8.062163730693362e-011:4 9.703164558234802e-002:5 -1.792397372589346e-014:6 
-1.792397372589346e-014:7 -1.787992575529789e-014:8 3.526275000384836e-015:9 -1.162617294265640e-038:a 2.931374524651133e-015:b -1.156768416726400e-010:c 
#C 4.255412722615160e-006 12
-3.294459319982893e-013:1 -2.212289297111616e-013:2 -2.053109625843426e-017:3 8.767523647795040e-011:4 9.703164558940164e-002:5 -1.769831437689292e-014:6 
-1.769831437689292e-014:7 -1.787994548977910e-014:8 4.106219251686853e-016:9 -1.162615720871616e-038:a 2.957528508838742e-015:b 2.655757318951812e-010:c 
#C 4.255412999857148e-006 12
-7.931987366236023e-013:1 -2.222285799542807e-013:2 -1.190855595144240e-015:3 8.541805539297507e-011:4 9.703164558714453e-002:5 -1.777828639634246e-014:6 
-1.777828639634246e-014:7 -1.787994768936132e-014:8 2.381711190288481e-014:9 -5.758634141354077e-037:a 2.956921527565244e-015:b -7.790782583789434e-010:c 
#C 4.255413554341125e-006 12
2.300644394139712e-012:1 -2.227619663021235e-013:2 1.314663358003236e-014:3 8.379573183911097e-011:4 9.703164558552230e-002:5 -1.782095730416988e-014:6 
-1.782095730416988e-014:7 -1.787993514814481e-014:8 -2.629326716006473e-013:9 2.057243994643033e-036:a 2.941678885545328e-015:b 4.597676125398650e-009:c 
#C 4.255413572824673e-006 12
-4.264729838074222e-012:1 -2.185575709905665e-013:2 1.154482539176120e-014:3 9.417111076639219e-011:4 9.703164559589769e-002:5 -1.748460567924532e-014:6 
-1.748460567924532e-014:7 -1.787993962840818e-014:8 -2.308965078352240e-013:9 -2.555067656356495e-038:a 2.975725634725272e-015:b -9.023226628739977e-009:c 
#C 4.255413609791769e-006 12
-4.592945829791776e-012:1 -2.218891988332434e-013:2 8.285102155424610e-015:3 8.626448756111442e-011:4 9.703164558799107e-002:5 -1.775113590665947e-014:6 
-1.775113590665947e-014:7 -1.787986822187127e-014:8 -1.657020431084922e-013:9 2.787899801418680e-037:a 2.959993906509965e-015:b -8.914867876685908e-009:c 
#C 4.255413683725961e-006 12
-5.198652293803127e-012:1 -2.208446431701198e-013:2 -3.508743657442492e-015:3 8.908592897923308e-011:4 9.703164559081252e-002:5 -1.766757145360958e-014:6 
-1.766757145360958e-014:7 -1.787989797250925e-014:8 7.017487314884984e-014:9 7.115980613969138e-037:a 2.977154471773395e-015:b -2.070954285447834e-008:c 
#C 4.255413831594346e-006 12
-2.490097965709140e-012:1 -2.226430418518905e-013:2 2.150276865582444e-014:3 8.485379039041365e-011:4 9.703164558658042e-002:5 -1.781144334815124e-014:6 
-1.781144334815124e-014:7 -1.787995654974747e-014:8 -4.300553731164888e-013:9 8.737212952837247e-037:a 2.969938025219909e-015:b 3.883668346977073e-008:c 
#C 4.255414127331115e-006 12
-3.542992416258499e-011:1 -2.223641039952978e-013:2 -2.397777127395005e-013:3 8.555917463913967e-011:4 9.703164558728584e-002:5 -1.778912831962383e-014:6 
-1.778912831962383e-014:7 -1.787996158785579e-014:8 4.795554254790010e-012:9 -1.616003951435776e-036:a 2.972739049265371e-015:b -1.586469370756160e-007:c 
#C 4.255414718804654e-006 12
3.383822336272730e-010:1 -2.227571347841137e-013:2 2.534047515967375e-012:3 8.407791519288351e-011:4 9.703164558580471e-002:5 -1.782057078272910e-014:6 
-1.782057078272910e-014:7 -1.787930635816532e-014:8 -5.068095031934750e-011:9 -1.785134130284727e-035:a 2.952442064216250e-015:b 8.418043536545584e-007:c 
#C 4.255414737885749e-006 12
-2.803821346349734e-010:1 -2.195828146450237e-013:2 2.240801825307616e-012:3 9.191398651520594e-011:4 9.703164559364079e-002:5 -1.756662517160190e-014:6 
-1.756662517160190e-014:7 -1.787891773692766e-014:8 -4.481603650615232e-011:9 -1.862498575029645e-035:a 2.978192059873481e-015:b -1.598383283312329e-006:c 
#C 4.255414776047937e-006 12
-3.414606132852384e-010:1 -2.255931208159075e-013:2 1.640319618905305e-012:3 7.723587678498661e-011:4 9.703164557896272e-002:5 -1.804744966527260e-014:6 
-1.804744966527260e-014:7 -1.787460213981432e-014:8 -3.280639237810610e-011:9 -6.836738037834174e-035:a 2.934894297690533e-015:b -1.597105975814242e-006:c 
#C 4.255414852372314e-006 12
-5.453027094009340e-010:1 -2.214169075595143e-013:2 -1.423649348514875e-012:3 8.739297464133432e-011:4 9.703164558911989e-002:5 -1.771335260476114e-014:6 
-1.771335260476114e-014:7 -1.788629515612073e-014:8 2.847298697029750e-011:9 2.455339631042714e-035:a 2.963057000506728e-015:b -5.642398438825076e-006:c 
#C 4.255415005021068e-006 12
7.329666637919690e-010:1 -2.227573813743644e-013:2 9.253347293628186e-012:3 8.400716237101734e-011:4 9.703164558573417e-002:5 -1.782059050994915e-014:6 
-1.782059050994915e-014:7 -1.787648628145134e-014:8 -1.850669458725636e-010:9 4.061505124486980e-033:a 2.949816772553475e-015:b 1.433846014533442e-005:c 
#C 4.255415026594521e-006 12
-1.790431016901834e-009:1 -2.222695989920535e-013:2 4.312090505363664e-012:3 8.520629992091329e-011:4 9.703164558693331e-002:5 -1.778156791936428e-014:6 
-1.778156791936428e-014:7 -1.787932266085135e-014:8 -8.624181010727327e-011:9 -3.464360182978661e-034:a 2.953265611017875e-015:b -2.660443117542113e-005:c 
#C 4.255415069741428e-006 12
-2.930664703640811e-009:1 -2.236551588341432e-013:2 -6.617935122855461e-012:3 8.175004278975949e-011:4 9.703164558347706e-002:5 -1.789241270673146e-014:6 
-1.789241270673146e-014:7 -1.786731600647555e-014:8 1.323587024571092e-010:9 -1.305561789085349e-033:a 2.939693498705014e-015:b -2.695400990877610e-005:c 
#C 4.255415156035240e-006 12
-7.890078156055856e-009:1 -2.161307602431735e-013:2 -7.472848350550287e-011:3 1.009357758139187e-010:4 9.703164560266282e-002:5 -1.729046081945388e-014:6 
-1.729046081945388e-014:7 -1.788360734748327e-014:8 1.494569670110057e-009:9 -2.611666381727248e-033:a 3.017769653682630e-015:b -1.146977464322177e-004:c 
#C 4.255415328622865e-006 12
1.822205456538400e-008:1 -2.241274804596778e-013:2 1.271720292495972e-010:3 8.118571764132014e-011:4 9.703164558291279e-002:5 -1.793019843677423e-014:6 
-1.793019843677423e-014:7 -1.779985287237968e-014:8 -2.543440584991946e-009:9 -2.775287771278785e-033:a 2.967376904413996e-015:b 2.476577968842182e-004:c 
#C 4.255415351513203e-006 12
-4.027937661418147e-008:1 -2.116103530889004e-013:2 1.307473411737924e-011:3 1.123625455980824e-010:4 9.703164561408964e-002:5 -1.692882824711203e-014:6 
-1.692882824711203e-014:7 -1.787836177469176e-014:8 -2.614946823475847e-010:9 5.297185636125911e-034:a 3.070972019079199e-015:b -5.705122718893347e-004:c 
#C 4.255415397293879e-006 12
-6.626591902898170e-008:1 -2.377192381139894e-013:2 -2.365834867867835e-010:3 4.902136157160752e-011:4 9.703164555074849e-002:5 -1.901753904911915e-014:6 
-1.901753904911915e-014:7 -1.790299988453384e-014:8 4.731669735735669e-009:9 9.477062464782887e-033:a 2.873791374651216e-015:b -5.767116162294154e-004:c 
#C 4.255415488855230e-006 12
-1.194068786466648e-007:1 -2.206646776020880e-013:2 -7.548265140269754e-010:3 9.247144776281751e-011:4 9.703164559419858e-002:5 -1.765317420816704e-014:6 
-1.765317420816704e-014:7 -1.798833138836674e-014:8 1.509653028053951e-008:9 3.672107519267366e-032:a 2.975297015915843e-015:b -5.801713949615527e-004:c 
#C 4.255415671977932e-006 12
-2.260286292092623e-007:1 -2.263813605489639e-013:2 -1.805797052053670e-009:3 8.598213520050397e-011:4 9.703164558770931e-002:5 -1.811050884391711e-014:6 
-1.811050884391711e-014:7 -1.830321553262749e-014:8 3.611594104107341e-008:9 1.409323519947342e-031:a 2.884481691351482e-015:b -5.801089258548414e-004:c 
#C 4.255416038223337e-006 12
-4.335999290212339e-007:1 -2.365510463058316e-013:2 -3.801329551996705e-009:3 8.569997673258073e-011:4 9.703164558742726e-002:5 -1.892408370446652e-014:6 
-1.892408370446652e-014:7 -1.951680726143272e-014:8 7.602659103993410e-008:9 -2.159610909488835e-031:a 2.482244930403658e-015:b -5.274289962710376e-004:c 
#C 4.255416770714147e-006 12
-8.382712676751650e-007:1 -2.673610790953929e-013:2 -7.738757160460061e-009:3 8.450086106507279e-011:4 9.703164558622827e-002:5 -2.138888632763143e-014:6 
-2.138888632763143e-014:7 -2.415438438990776e-014:8 1.547751432092012e-007:9 -3.556834214302809e-032:a 2.562893526247755e-016:b -5.365993289466731e-004:c 
#C 4.255418235695766e-006 12
-1.115693256282180e-006:1 -3.235612634635401e-013:2 -1.078795623338233e-008:3 8.495935891882576e-011:4 9.703164558668703e-002:5 -2.588490107708320e-014:6 
-2.588490107708320e-014:7 -3.771919892935301e-014:8 2.157591246676467e-007:9 1.535352978578012e-030:a -8.755358023676653e-015:b 5.966861178543018e-006:c 
#C 4.255421165659004e-006 12
-4.562637139356465e-006:1 -6.664285296233872e-013:2 -3.699570291144240e-008:3 8.547059501636588e-011:4 9.703164558719878e-002:5 -5.331428236987097e-014:6 
-5.331428236987097e-014:7 -1.287170942382990e-013:8 7.399140582288480e-007:9 -3.104035571078783e-030:a -7.232645096732843e-014:b -1.370871487990527e-003:c 
#C 4.255427025585480e-006 12
-1.212566846105983e-005:1 -1.994035194464521e-012:2 -1.096237701624494e-007:3 8.517899311313700e-011:4 9.703164558690820e-002:5 -1.595228155571617e-013:6 
-1.595228155571617e-013:7 -6.278746681460585e-013:8 2.192475403248988e-006:9 -5.642413984179303e-030:a -4.652387814534538e-013:b -1.525180508546493e-003:c 
#C 4.255438745438433e-006 12
-2.728140467224743e-005:1 -6.620062542507554e-012:2 -2.525479471697842e-007:3 8.514644822330078e-011:4 9.703164558687771e-002:5 -5.296050034006044e-013:6 
-5.296050034006044e-013:7 -2.945604932688116e-012:8 5.050958943395685e-006:9 -2.162289951613663e-029:a -2.412722650878224e-012:b -1.334822954124846e-003:c 
#C 4.255462185144338e-006 12
-5.076512470113563e-005:1 -2.127366200087121e-011:2 -4.511152309862400e-007:3 8.511928925240113e-011:4 9.703164558685466e-002:5 -1.701892960069697e-012:6 
-1.701892960069697e-012:7 -1.193930351964892e-011:8 9.022304619724799e-006:9 3.775795651201975e-030:a -1.023361079910240e-011:b -8.284708037369097e-004:c 
#C 4.255509064556149e-006 12
-7.613799071023333e-005:1 -6.048768891449838e-011:2 -5.911776186208044e-007:3 8.511694891992212e-011:4 9.703164558686075e-002:5 -4.839015113159871e-012:6 
-4.839015113159871e-012:7 -4.055001673681204e-011:8 1.182355237241609e-005:9 -3.153251117751254e-029:a -3.570585411378690e-011:b -2.336805529266426e-004:c 
#C 4.255602823379771e-006 12
-4.673108847060105e-005:1 -1.069954991549447e-010:2 -2.235081510797105e-007:3 8.509703853562217e-011:4 9.703164558685815e-002:5 -8.559639932395578e-012:6 
-8.559639932395578e-012:7 -8.972732750759160e-011:8 4.470163021594211e-006:9 -4.267513001535042e-029:a -8.116082746877421e-011:b 7.401017972929217e-004:c 
#C 4.255790341027014e-006 12
-5.000272921431455e-005:1 -1.728306477923734e-010:2 -1.672308351517092e-007:3 8.506640701754923e-011:4 9.703164558686352e-002:5 -1.382645182338987e-011:6 
-1.382645182338987e-011:7 -1.853272828963591e-010:8 3.344616703034184e-006:9 -3.769231182168227e-030:a -1.714916204544570e-010:b -2.946054409549446e-004:c 
#C 4.256165376321500e-006 12
-6.249044874844614e-005:1 -2.904635826726227e-010:2 -8.520633089198514e-008:3 8.501706997352843e-011:4 9.703164558689073e-002:5 -2.323708661380982e-011:6 
-2.323708661380982e-011:7 -4.024232404762452e-010:8 1.704126617839703e-006:9 3.262750431223267e-030:a -3.791727437824697e-010:b -2.401071972603360e-005:c 
#C 4.256915446910473e-006 12
-6.744923670277214e-005:1 -5.081588491996161e-010:2 5.380229881189330e-009:3 8.489610571624730e-011:4 9.703164558693927e-002:5 -4.065270793596928e-011:6 
-4.065270793596928e-011:7 -8.796474320699077e-010:8 -1.076045976237866e-007:9 6.590045723973532e-032:a -8.389735436107995e-010:b 1.189904311924287e-005:c 
#C 4.258415588088419e-006 12
-7.003359031105812e-005:1 -9.429485406186904e-010:2 1.002429984830389e-008:3 8.458522302042488e-011:4 9.703164558703158e-002:5 -7.543588324949523e-011:6 
-7.543588324949523e-011:7 -1.891778129130173e-009:8 -2.004859969660778e-007:9 3.597872004181575e-031:a -1.816305548254227e-009:b 1.423623058738649e-006:c 
#C 4.261415870444311e-006 12
-7.225888912425730e-005:1 -1.843328830639459e-009:2 -5.675171951594864e-009:3 8.375705792084689e-011:4 9.703164558727126e-002:5 -1.474663064511567e-010:6 
-1.474663064511567e-010:7 -4.002224291252117e-009:8 1.135034390318960e-007:9 2.769790745135695e-029:a -3.854689156407370e-009:b 7.432592907840371e-009:c 
#C 4.267416435156094e-006 12
